Freq.	V(vout)
1.00000000000000e-02	(-6.02234061726829e+00dB,-1.14703965661657e+00°)
1.00023028502082e-02	(-6.02234141891598e+00dB,-1.14730373207186e+00°)
1.00046062307284e-02	(-6.02234222093276e+00dB,-1.14756786829101e+00°)
1.00069101416826e-02	(-6.02234302331884e+00dB,-1.14783206528796e+00°)
1.00092145831930e-02	(-6.02234382607435e+00dB,-1.14809632307670e+00°)
1.00115195553817e-02	(-6.02234462919949e+00dB,-1.14836064167118e+00°)
1.00138250583710e-02	(-6.02234543269442e+00dB,-1.14862502108536e+00°)
1.00161310922831e-02	(-6.02234623655930e+00dB,-1.14888946133323e+00°)
1.00184376572403e-02	(-6.02234704079432e+00dB,-1.14915396242876e+00°)
1.00207447533648e-02	(-6.02234784539964e+00dB,-1.14941852438593e+00°)
1.00230523807790e-02	(-6.02234865037542e+00dB,-1.14968314721871e+00°)
1.00253605396052e-02	(-6.02234945572185e+00dB,-1.14994783094110e+00°)
1.00276692299659e-02	(-6.02235026143909e+00dB,-1.15021257556708e+00°)
1.00299784519833e-02	(-6.02235106752731e+00dB,-1.15047738111065e+00°)
1.00322882057800e-02	(-6.02235187398669e+00dB,-1.15074224758579e+00°)
1.00345984914784e-02	(-6.02235268081739e+00dB,-1.15100717500650e+00°)
1.00369093092010e-02	(-6.02235348801958e+00dB,-1.15127216338679e+00°)
1.00392206590702e-02	(-6.02235429559344e+00dB,-1.15153721274066e+00°)
1.00415325412088e-02	(-6.02235510353914e+00dB,-1.15180232308212e+00°)
1.00438449557391e-02	(-6.02235591185684e+00dB,-1.15206749442518e+00°)
1.00461579027839e-02	(-6.02235672054673e+00dB,-1.15233272678384e+00°)
1.00484713824658e-02	(-6.02235752960896e+00dB,-1.15259802017214e+00°)
1.00507853949073e-02	(-6.02235833904372e+00dB,-1.15286337460408e+00°)
1.00530999402313e-02	(-6.02235914885117e+00dB,-1.15312879009369e+00°)
1.00554150185604e-02	(-6.02235995903148e+00dB,-1.15339426665501e+00°)
1.00577306300174e-02	(-6.02236076958483e+00dB,-1.15365980430205e+00°)
1.00600467747249e-02	(-6.02236158051139e+00dB,-1.15392540304885e+00°)
1.00623634528060e-02	(-6.02236239181133e+00dB,-1.15419106290945e+00°)
1.00646806643832e-02	(-6.02236320348482e+00dB,-1.15445678389788e+00°)
1.00669984095796e-02	(-6.02236401553204e+00dB,-1.15472256602819e+00°)
1.00693166885180e-02	(-6.02236482795315e+00dB,-1.15498840931443e+00°)
1.00716355013213e-02	(-6.02236564074833e+00dB,-1.15525431377064e+00°)
1.00739548481125e-02	(-6.02236645391774e+00dB,-1.15552027941088e+00°)
1.00762747290145e-02	(-6.02236726746158e+00dB,-1.15578630624920e+00°)
1.00785951441503e-02	(-6.02236808137999e+00dB,-1.15605239429965e+00°)
1.00809160936429e-02	(-6.02236889567316e+00dB,-1.15631854357631e+00°)
1.00832375776155e-02	(-6.02236971034127e+00dB,-1.15658475409323e+00°)
1.00855595961910e-02	(-6.02237052538447e+00dB,-1.15685102586449e+00°)
1.00878821494927e-02	(-6.02237134080295e+00dB,-1.15711735890416e+00°)
1.00902052376435e-02	(-6.02237215659687e+00dB,-1.15738375322630e+00°)
1.00925288607668e-02	(-6.02237297276642e+00dB,-1.15765020884500e+00°)
1.00948530189857e-02	(-6.02237378931176e+00dB,-1.15791672577435e+00°)
1.00971777124234e-02	(-6.02237460623306e+00dB,-1.15818330402842e+00°)
1.00995029412032e-02	(-6.02237542353051e+00dB,-1.15844994362129e+00°)
1.01018287054483e-02	(-6.02237624120426e+00dB,-1.15871664456707e+00°)
1.01041550052821e-02	(-6.02237705925450e+00dB,-1.15898340687985e+00°)
1.01064818408279e-02	(-6.02237787768140e+00dB,-1.15925023057372e+00°)
1.01088092122091e-02	(-6.02237869648514e+00dB,-1.15951711566279e+00°)
1.01111371195490e-02	(-6.02237951566587e+00dB,-1.15978406216115e+00°)
1.01134655629712e-02	(-6.02238033522379e+00dB,-1.16005107008292e+00°)
1.01157945425989e-02	(-6.02238115515906e+00dB,-1.16031813944220e+00°)
1.01181240585558e-02	(-6.02238197547185e+00dB,-1.16058527025311e+00°)
1.01204541109654e-02	(-6.02238279616235e+00dB,-1.16085246252976e+00°)
1.01227846999511e-02	(-6.02238361723071e+00dB,-1.16111971628628e+00°)
1.01251158256365e-02	(-6.02238443867713e+00dB,-1.16138703153678e+00°)
1.01274474881453e-02	(-6.02238526050177e+00dB,-1.16165440829540e+00°)
1.01297796876010e-02	(-6.02238608270480e+00dB,-1.16192184657626e+00°)
1.01321124241273e-02	(-6.02238690528641e+00dB,-1.16218934639350e+00°)
1.01344456978479e-02	(-6.02238772824676e+00dB,-1.16245690776124e+00°)
1.01367795088864e-02	(-6.02238855158602e+00dB,-1.16272453069364e+00°)
1.01391138573667e-02	(-6.02238937530438e+00dB,-1.16299221520483e+00°)
1.01414487434125e-02	(-6.02239019940201e+00dB,-1.16325996130896e+00°)
1.01437841671476e-02	(-6.02239102387908e+00dB,-1.16352776902018e+00°)
1.01461201286958e-02	(-6.02239184873576e+00dB,-1.16379563835264e+00°)
1.01484566281809e-02	(-6.02239267397224e+00dB,-1.16406356932049e+00°)
1.01507936657269e-02	(-6.02239349958868e+00dB,-1.16433156193790e+00°)
1.01531312414576e-02	(-6.02239432558526e+00dB,-1.16459961621902e+00°)
1.01554693554969e-02	(-6.02239515196216e+00dB,-1.16486773217802e+00°)
1.01578080079689e-02	(-6.02239597871955e+00dB,-1.16513590982907e+00°)
1.01601471989976e-02	(-6.02239680585761e+00dB,-1.16540414918634e+00°)
1.01624869287069e-02	(-6.02239763337650e+00dB,-1.16567245026400e+00°)
1.01648271972209e-02	(-6.02239846127642e+00dB,-1.16594081307624e+00°)
1.01671680046637e-02	(-6.02239928955752e+00dB,-1.16620923763723e+00°)
1.01695093511594e-02	(-6.02240011822000e+00dB,-1.16647772396116e+00°)
1.01718512368321e-02	(-6.02240094726401e+00dB,-1.16674627206222e+00°)
1.01741936618060e-02	(-6.02240177668975e+00dB,-1.16701488195459e+00°)
1.01765366262053e-02	(-6.02240260649737e+00dB,-1.16728355365247e+00°)
1.01788801301542e-02	(-6.02240343668707e+00dB,-1.16755228717007e+00°)
1.01812241737769e-02	(-6.02240426725902e+00dB,-1.16782108252157e+00°)
1.01835687571978e-02	(-6.02240509821338e+00dB,-1.16808993972118e+00°)
1.01859138805411e-02	(-6.02240592955035e+00dB,-1.16835885878312e+00°)
1.01882595439312e-02	(-6.02240676127008e+00dB,-1.16862783972159e+00°)
1.01906057474924e-02	(-6.02240759337277e+00dB,-1.16889688255080e+00°)
1.01929524913492e-02	(-6.02240842585859e+00dB,-1.16916598728497e+00°)
1.01952997756259e-02	(-6.02240925872770e+00dB,-1.16943515393833e+00°)
1.01976476004471e-02	(-6.02241009198029e+00dB,-1.16970438252509e+00°)
1.01999959659371e-02	(-6.02241092561655e+00dB,-1.16997367305948e+00°)
1.02023448722206e-02	(-6.02241175963663e+00dB,-1.17024302555573e+00°)
1.02046943194219e-02	(-6.02241259404071e+00dB,-1.17051244002808e+00°)
1.02070443076658e-02	(-6.02241342882899e+00dB,-1.17078191649076e+00°)
1.02093948370767e-02	(-6.02241426400163e+00dB,-1.17105145495801e+00°)
1.02117459077794e-02	(-6.02241509955881e+00dB,-1.17132105544407e+00°)
1.02140975198984e-02	(-6.02241593550070e+00dB,-1.17159071796320e+00°)
1.02164496735585e-02	(-6.02241677182749e+00dB,-1.17186044252963e+00°)
1.02188023688843e-02	(-6.02241760853934e+00dB,-1.17213022915763e+00°)
1.02211556060006e-02	(-6.02241844563645e+00dB,-1.17240007786144e+00°)
1.02235093850322e-02	(-6.02241928311897e+00dB,-1.17266998865533e+00°)
1.02258637061038e-02	(-6.02242012098711e+00dB,-1.17293996155357e+00°)
1.02282185693404e-02	(-6.02242095924101e+00dB,-1.17320999657040e+00°)
1.02305739748666e-02	(-6.02242179788088e+00dB,-1.17348009372012e+00°)
1.02329299228074e-02	(-6.02242263690689e+00dB,-1.17375025301698e+00°)
1.02352864132878e-02	(-6.02242347631920e+00dB,-1.17402047447526e+00°)
1.02376434464327e-02	(-6.02242431611801e+00dB,-1.17429075810924e+00°)
1.02400010223669e-02	(-6.02242515630348e+00dB,-1.17456110393321e+00°)
1.02423591412156e-02	(-6.02242599687580e+00dB,-1.17483151196144e+00°)
1.02447178031037e-02	(-6.02242683783514e+00dB,-1.17510198220823e+00°)
1.02470770081563e-02	(-6.02242767918169e+00dB,-1.17537251468787e+00°)
1.02494367564986e-02	(-6.02242852091562e+00dB,-1.17564310941466e+00°)
1.02517970482555e-02	(-6.02242936303710e+00dB,-1.17591376640289e+00°)
1.02541578835522e-02	(-6.02243020554632e+00dB,-1.17618448566686e+00°)
1.02565192625140e-02	(-6.02243104844346e+00dB,-1.17645526722088e+00°)
1.02588811852659e-02	(-6.02243189172870e+00dB,-1.17672611107926e+00°)
1.02612436519333e-02	(-6.02243273540220e+00dB,-1.17699701725630e+00°)
1.02636066626414e-02	(-6.02243357946416e+00dB,-1.17726798576633e+00°)
1.02659702175154e-02	(-6.02243442391475e+00dB,-1.17753901662366e+00°)
1.02683343166808e-02	(-6.02243526875414e+00dB,-1.17781010984261e+00°)
1.02706989602627e-02	(-6.02243611398252e+00dB,-1.17808126543752e+00°)
1.02730641483867e-02	(-6.02243695960008e+00dB,-1.17835248342269e+00°)
1.02754298811780e-02	(-6.02243780560697e+00dB,-1.17862376381247e+00°)
1.02777961587622e-02	(-6.02243865200340e+00dB,-1.17889510662119e+00°)
1.02801629812646e-02	(-6.02243949878952e+00dB,-1.17916651186319e+00°)
1.02825303488108e-02	(-6.02244034596554e+00dB,-1.17943797955281e+00°)
1.02848982615264e-02	(-6.02244119353161e+00dB,-1.17970950970439e+00°)
1.02872667195367e-02	(-6.02244204148793e+00dB,-1.17998110233229e+00°)
1.02896357229674e-02	(-6.02244288983467e+00dB,-1.18025275745084e+00°)
1.02920052719442e-02	(-6.02244373857201e+00dB,-1.18052447507441e+00°)
1.02943753665925e-02	(-6.02244458770014e+00dB,-1.18079625521735e+00°)
1.02967460070382e-02	(-6.02244543721922e+00dB,-1.18106809789403e+00°)
1.02991171934069e-02	(-6.02244628712945e+00dB,-1.18134000311880e+00°)
1.03014889258242e-02	(-6.02244713743100e+00dB,-1.18161197090604e+00°)
1.03038612044160e-02	(-6.02244798812405e+00dB,-1.18188400127011e+00°)
1.03062340293081e-02	(-6.02244883920879e+00dB,-1.18215609422539e+00°)
1.03086074006261e-02	(-6.02244969068539e+00dB,-1.18242824978625e+00°)
1.03109813184961e-02	(-6.02245054255402e+00dB,-1.18270046796708e+00°)
1.03133557830437e-02	(-6.02245139481489e+00dB,-1.18297274878226e+00°)
1.03157307943950e-02	(-6.02245224746815e+00dB,-1.18324509224618e+00°)
1.03181063526758e-02	(-6.02245310051400e+00dB,-1.18351749837322e+00°)
1.03204824580121e-02	(-6.02245395395262e+00dB,-1.18378996717778e+00°)
1.03228591105299e-02	(-6.02245480778418e+00dB,-1.18406249867426e+00°)
1.03252363103551e-02	(-6.02245566200887e+00dB,-1.18433509287705e+00°)
1.03276140576138e-02	(-6.02245651662686e+00dB,-1.18460774980057e+00°)
1.03299923524322e-02	(-6.02245737163835e+00dB,-1.18488046945921e+00°)
1.03323711949362e-02	(-6.02245822704350e+00dB,-1.18515325186739e+00°)
1.03347505852520e-02	(-6.02245908284250e+00dB,-1.18542609703951e+00°)
1.03371305235057e-02	(-6.02245993903554e+00dB,-1.18569900499001e+00°)
1.03395110098236e-02	(-6.02246079562279e+00dB,-1.18597197573328e+00°)
1.03418920443318e-02	(-6.02246165260443e+00dB,-1.18624500928377e+00°)
1.03442736271566e-02	(-6.02246250998065e+00dB,-1.18651810565589e+00°)
1.03466557584242e-02	(-6.02246336775163e+00dB,-1.18679126486408e+00°)
1.03490384382610e-02	(-6.02246422591755e+00dB,-1.18706448692276e+00°)
1.03514216667933e-02	(-6.02246508447859e+00dB,-1.18733777184638e+00°)
1.03538054441474e-02	(-6.02246594343493e+00dB,-1.18761111964937e+00°)
1.03561897704497e-02	(-6.02246680278676e+00dB,-1.18788453034618e+00°)
1.03585746458267e-02	(-6.02246766253425e+00dB,-1.18815800395125e+00°)
1.03609600704047e-02	(-6.02246852267759e+00dB,-1.18843154047903e+00°)
1.03633460443103e-02	(-6.02246938321697e+00dB,-1.18870513994398e+00°)
1.03657325676699e-02	(-6.02247024415256e+00dB,-1.18897880236055e+00°)
1.03681196406101e-02	(-6.02247110548454e+00dB,-1.18925252774320e+00°)
1.03705072632575e-02	(-6.02247196721311e+00dB,-1.18952631610639e+00°)
1.03728954357386e-02	(-6.02247282933843e+00dB,-1.18980016746459e+00°)
1.03752841581800e-02	(-6.02247369186070e+00dB,-1.19007408183226e+00°)
1.03776734307084e-02	(-6.02247455478009e+00dB,-1.19034805922389e+00°)
1.03800632534505e-02	(-6.02247541809680e+00dB,-1.19062209965395e+00°)
1.03824536265330e-02	(-6.02247628181099e+00dB,-1.19089620313691e+00°)
1.03848445500826e-02	(-6.02247714592286e+00dB,-1.19117036968726e+00°)
1.03872360242261e-02	(-6.02247801043259e+00dB,-1.19144459931948e+00°)
1.03896280490902e-02	(-6.02247887534036e+00dB,-1.19171889204806e+00°)
1.03920206248019e-02	(-6.02247974064635e+00dB,-1.19199324788750e+00°)
1.03944137514879e-02	(-6.02248060635075e+00dB,-1.19226766685230e+00°)
1.03968074292751e-02	(-6.02248147245374e+00dB,-1.19254214895694e+00°)
1.03992016582904e-02	(-6.02248233895550e+00dB,-1.19281669421593e+00°)
1.04015964386609e-02	(-6.02248320585622e+00dB,-1.19309130264379e+00°)
1.04039917705134e-02	(-6.02248407315609e+00dB,-1.19336597425501e+00°)
1.04063876539749e-02	(-6.02248494085528e+00dB,-1.19364070906411e+00°)
1.04087840891725e-02	(-6.02248580895397e+00dB,-1.19391550708560e+00°)
1.04111810762332e-02	(-6.02248667745237e+00dB,-1.19419036833401e+00°)
1.04135786152842e-02	(-6.02248754635063e+00dB,-1.19446529282386e+00°)
1.04159767064525e-02	(-6.02248841564896e+00dB,-1.19474028056967e+00°)
1.04183753498652e-02	(-6.02248928534753e+00dB,-1.19501533158597e+00°)
1.04207745456496e-02	(-6.02249015544653e+00dB,-1.19529044588729e+00°)
1.04231742939329e-02	(-6.02249102594615e+00dB,-1.19556562348817e+00°)
1.04255745948422e-02	(-6.02249189684656e+00dB,-1.19584086440315e+00°)
1.04279754485049e-02	(-6.02249276814795e+00dB,-1.19611616864677e+00°)
1.04303768550482e-02	(-6.02249363985051e+00dB,-1.19639153623357e+00°)
1.04327788145995e-02	(-6.02249451195442e+00dB,-1.19666696717811e+00°)
1.04351813272861e-02	(-6.02249538445987e+00dB,-1.19694246149494e+00°)
1.04375843932353e-02	(-6.02249625736704e+00dB,-1.19721801919860e+00°)
1.04399880125747e-02	(-6.02249713067612e+00dB,-1.19749364030367e+00°)
1.04423921854316e-02	(-6.02249800438728e+00dB,-1.19776932482470e+00°)
1.04447969119335e-02	(-6.02249887850072e+00dB,-1.19804507277625e+00°)
1.04472021922078e-02	(-6.02249975301662e+00dB,-1.19832088417291e+00°)
1.04496080263822e-02	(-6.02250062793517e+00dB,-1.19859675902923e+00°)
1.04520144145842e-02	(-6.02250150325655e+00dB,-1.19887269735980e+00°)
1.04544213569413e-02	(-6.02250237898094e+00dB,-1.19914869917919e+00°)
1.04568288535812e-02	(-6.02250325510854e+00dB,-1.19942476450198e+00°)
1.04592369046315e-02	(-6.02250413163952e+00dB,-1.19970089334277e+00°)
1.04616455102199e-02	(-6.02250500857408e+00dB,-1.19997708571614e+00°)
1.04640546704741e-02	(-6.02250588591240e+00dB,-1.20025334163667e+00°)
1.04664643855218e-02	(-6.02250676365466e+00dB,-1.20052966111898e+00°)
1.04688746554908e-02	(-6.02250764180105e+00dB,-1.20080604417765e+00°)
1.04712854805088e-02	(-6.02250852035176e+00dB,-1.20108249082729e+00°)
1.04736968607038e-02	(-6.02250939930698e+00dB,-1.20135900108250e+00°)
1.04761087962034e-02	(-6.02251027866688e+00dB,-1.20163557495789e+00°)
1.04785212871357e-02	(-6.02251115843166e+00dB,-1.20191221246808e+00°)
1.04809343336286e-02	(-6.02251203860149e+00dB,-1.20218891362768e+00°)
1.04833479358098e-02	(-6.02251291917658e+00dB,-1.20246567845130e+00°)
1.04857620938075e-02	(-6.02251380015710e+00dB,-1.20274250695358e+00°)
1.04881768077497e-02	(-6.02251468154324e+00dB,-1.20301939914913e+00°)
1.04905920777643e-02	(-6.02251556333520e+00dB,-1.20329635505259e+00°)
1.04930079039794e-02	(-6.02251644553314e+00dB,-1.20357337467858e+00°)
1.04954242865230e-02	(-6.02251732813726e+00dB,-1.20385045804175e+00°)
1.04978412255234e-02	(-6.02251821114776e+00dB,-1.20412760515672e+00°)
1.05002587211087e-02	(-6.02251909456481e+00dB,-1.20440481603816e+00°)
1.05026767734069e-02	(-6.02251997838860e+00dB,-1.20468209070069e+00°)
1.05050953825464e-02	(-6.02252086261932e+00dB,-1.20495942915896e+00°)
1.05075145486553e-02	(-6.02252174725716e+00dB,-1.20523683142764e+00°)
1.05099342718620e-02	(-6.02252263230231e+00dB,-1.20551429752138e+00°)
1.05123545522946e-02	(-6.02252351775494e+00dB,-1.20579182745482e+00°)
1.05147753900816e-02	(-6.02252440361525e+00dB,-1.20606942124265e+00°)
1.05171967853513e-02	(-6.02252528988343e+00dB,-1.20634707889952e+00°)
1.05196187382320e-02	(-6.02252617655967e+00dB,-1.20662480044009e+00°)
1.05220412488522e-02	(-6.02252706364415e+00dB,-1.20690258587906e+00°)
1.05244643173403e-02	(-6.02252795113706e+00dB,-1.20718043523108e+00°)
1.05268879438248e-02	(-6.02252883903858e+00dB,-1.20745834851084e+00°)
1.05293121284342e-02	(-6.02252972734892e+00dB,-1.20773632573302e+00°)
1.05317368712970e-02	(-6.02253061606824e+00dB,-1.20801436691231e+00°)
1.05341621725417e-02	(-6.02253150519675e+00dB,-1.20829247206339e+00°)
1.05365880322970e-02	(-6.02253239473464e+00dB,-1.20857064120096e+00°)
1.05390144506914e-02	(-6.02253328468208e+00dB,-1.20884887433972e+00°)
1.05414414278537e-02	(-6.02253417503926e+00dB,-1.20912717149435e+00°)
1.05438689639124e-02	(-6.02253506580639e+00dB,-1.20940553267958e+00°)
1.05462970589963e-02	(-6.02253595698364e+00dB,-1.20968395791009e+00°)
1.05487257132342e-02	(-6.02253684857120e+00dB,-1.20996244720061e+00°)
1.05511549267547e-02	(-6.02253774056926e+00dB,-1.21024100056583e+00°)
1.05535846996867e-02	(-6.02253863297802e+00dB,-1.21051961802049e+00°)
1.05560150321591e-02	(-6.02253952579766e+00dB,-1.21079829957930e+00°)
1.05584459243006e-02	(-6.02254041902837e+00dB,-1.21107704525697e+00°)
1.05608773762401e-02	(-6.02254131267033e+00dB,-1.21135585506825e+00°)
1.05633093881067e-02	(-6.02254220672375e+00dB,-1.21163472902785e+00°)
1.05657419600291e-02	(-6.02254310118880e+00dB,-1.21191366715051e+00°)
1.05681750921364e-02	(-6.02254399606568e+00dB,-1.21219266945096e+00°)
1.05706087845575e-02	(-6.02254489135457e+00dB,-1.21247173594395e+00°)
1.05730430374216e-02	(-6.02254578705567e+00dB,-1.21275086664422e+00°)
1.05754778508577e-02	(-6.02254668316917e+00dB,-1.21303006156651e+00°)
1.05779132249948e-02	(-6.02254757969526e+00dB,-1.21330932072557e+00°)
1.05803491599621e-02	(-6.02254847663411e+00dB,-1.21358864413616e+00°)
1.05827856558887e-02	(-6.02254937398594e+00dB,-1.21386803181304e+00°)
1.05852227129039e-02	(-6.02255027175092e+00dB,-1.21414748377095e+00°)
1.05876603311368e-02	(-6.02255116992924e+00dB,-1.21442700002468e+00°)
1.05900985107166e-02	(-6.02255206852110e+00dB,-1.21470658058897e+00°)
1.05925372517727e-02	(-6.02255296752669e+00dB,-1.21498622547861e+00°)
1.05949765544343e-02	(-6.02255386694619e+00dB,-1.21526593470836e+00°)
1.05974164188308e-02	(-6.02255476677980e+00dB,-1.21554570829300e+00°)
1.05998568450915e-02	(-6.02255566702770e+00dB,-1.21582554624731e+00°)
1.06022978333458e-02	(-6.02255656769010e+00dB,-1.21610544858608e+00°)
1.06047393837231e-02	(-6.02255746876717e+00dB,-1.21638541532409e+00°)
1.06071814963529e-02	(-6.02255837025912e+00dB,-1.21666544647614e+00°)
1.06096241713647e-02	(-6.02255927216612e+00dB,-1.21694554205700e+00°)
1.06120674088880e-02	(-6.02256017448838e+00dB,-1.21722570208149e+00°)
1.06145112090522e-02	(-6.02256107722608e+00dB,-1.21750592656440e+00°)
1.06169555719870e-02	(-6.02256198037941e+00dB,-1.21778621552054e+00°)
1.06194004978220e-02	(-6.02256288394857e+00dB,-1.21806656896471e+00°)
1.06218459866868e-02	(-6.02256378793375e+00dB,-1.21834698691172e+00°)
1.06242920387110e-02	(-6.02256469233513e+00dB,-1.21862746937639e+00°)
1.06267386540244e-02	(-6.02256559715291e+00dB,-1.21890801637354e+00°)
1.06291858327567e-02	(-6.02256650238729e+00dB,-1.21918862791798e+00°)
1.06316335750375e-02	(-6.02256740803845e+00dB,-1.21946930402453e+00°)
1.06340818809967e-02	(-6.02256831410658e+00dB,-1.21975004470803e+00°)
1.06365307507641e-02	(-6.02256922059188e+00dB,-1.22003084998331e+00°)
1.06389801844696e-02	(-6.02257012749454e+00dB,-1.22031171986520e+00°)
1.06414301822429e-02	(-6.02257103481475e+00dB,-1.22059265436854e+00°)
1.06438807442140e-02	(-6.02257194255270e+00dB,-1.22087365350816e+00°)
1.06463318705129e-02	(-6.02257285070858e+00dB,-1.22115471729892e+00°)
1.06487835612694e-02	(-6.02257375928260e+00dB,-1.22143584575566e+00°)
1.06512358166136e-02	(-6.02257466827493e+00dB,-1.22171703889323e+00°)
1.06536886366754e-02	(-6.02257557768578e+00dB,-1.22199829672648e+00°)
1.06561420215849e-02	(-6.02257648751533e+00dB,-1.22227961927028e+00°)
1.06585959714723e-02	(-6.02257739776378e+00dB,-1.22256100653949e+00°)
1.06610504864676e-02	(-6.02257830843132e+00dB,-1.22284245854896e+00°)
1.06635055667008e-02	(-6.02257921951814e+00dB,-1.22312397531357e+00°)
1.06659612123023e-02	(-6.02258013102444e+00dB,-1.22340555684819e+00°)
1.06684174234022e-02	(-6.02258104295041e+00dB,-1.22368720316769e+00°)
1.06708742001307e-02	(-6.02258195529624e+00dB,-1.22396891428696e+00°)
1.06733315426181e-02	(-6.02258286806213e+00dB,-1.22425069022087e+00°)
1.06757894509947e-02	(-6.02258378124827e+00dB,-1.22453253098430e+00°)
